! Touchstone file exported from HFSS 2024.2.0
!        File:           C:/00_Asenjo/00_Project/Ketupa/simulation/Ansys_HFSS/HFSS_Projects/Edge_Fed_Rectangular_Patch_Antenna.aedt
!        Generated:      05:11:10 PM Jun 27, 2025
!        Design:         Rectangular_Patch_Antenna
!        Project:        Edge_Fed_Rectangular_Patch_Antenna
!        Setup:          Setup1
!        Solution:       Sweep
!
! Variables:
!        Airbox_dist = 9.9931mm
!        EdgeFeedLength = 10mm
!        EdgeFeedWidth = 1.5mm
!        FeedLength = 15mm
!        FeedWidth = 3mm
!        VirtualObject_dist = 2.9979mm
!        patchX = 41mm
!        patchY = 32.5mm
!        subH = 1.5mm
!        subX = 90mm
!        subY = 90mm
!
# GHz S MA R 50.000000
! Terminal data exported
! Port[1] = patch_T1
0                              0.999986826262102 0                
! Gamma         50               0                
! Port Impedance         50               0                
1E-09                          0.999986826262102 -1.17604518187284E-06 
! Gamma         50               0                
! Port Impedance         50               0                
1.12201845430196E-09           0.999986826262102 -1.31954439715424E-06 
! Gamma         50               0                
! Port Impedance         50               0                
1.25892541179417E-09           0.999986826262102 -1.48055316487781E-06 
! Gamma         50               0                
! Port Impedance         50               0                
1.41253754462275E-09           0.999986826262102 -1.66120797356808E-06 
! Gamma         50               0                
! Port Impedance         50               0                
1.58489319246111E-09           0.999986826262102 -1.86390600277696E-06 
! Gamma         50               0                
! Port Impedance         50               0                
1.77827941003892E-09           0.999986826262102 -2.09133693219995E-06 
! Gamma         50               0                
! Port Impedance         50               0                
1.99526231496888E-09           0.999986826262102 -2.3465186320916E-06 
! Gamma         50               0                
! Port Impedance         50               0                
2.23872113856834E-09           0.999986826262102 -2.63283720857017E-06 
! Gamma         50               0                
! Port Impedance         50               0                
2.51188643150958E-09           0.999986826262102 -2.9540919351886E-06 
! Gamma         50               0                
! Port Impedance         50               0                
2.81838293126445E-09           0.999986826262102 -3.31454566698621E-06 
! Gamma         50               0                
! Port Impedance         50               0                
3.16227766016838E-09           0.999986826262102 -3.71898140598514E-06 
! Gamma         50               0                
! Port Impedance         50               0                
3.54813389233575E-09           0.999986826262102 -4.17276576872119E-06 
! Gamma         50               0                
! Port Impedance         50               0                
3.98107170553497E-09           0.999986826262102 -4.68192019798469E-06 
! Gamma         50               0                
! Port Impedance         50               0                
4.46683592150963E-09           0.999986826262102 -5.25320086370793E-06 
! Gamma         50               0                
! Port Impedance         50               0                
5.01187233627272E-09           0.999986826262102 -5.89418831323531E-06 
! Gamma         50               0                
! Port Impedance         50               0                
5.62341325190349E-09           0.999986826262102 -6.61338806058097E-06 
! Gamma         50               0                
! Port Impedance         50               0                
6.30957344480193E-09           0.999986826262102 -7.42034344943212E-06 
! Gamma         50               0                
! Port Impedance         50               0                
7.07945784384138E-09           0.999986826262102 -8.32576228752153E-06 
! Gamma         50               0                
! Port Impedance         50               0                
7.94328234724282E-09           0.999986826262102 -9.34165893273048E-06 
! Gamma         50               0                
! Port Impedance         50               0                
8.91250938133745E-09           0.999986826262102 -1.04815137163184E-05 
! Gamma         50               0                
! Port Impedance         50               0                
1E-08                          0.999986826262102 -1.17604518187284E-05 
! Gamma         50               0                
! Port Impedance         50               0                
1.12201845430196E-08           0.999986826262101 -1.31954439715423E-05 
! Gamma         50               0                
! Port Impedance         50               0                
1.25892541179417E-08           0.999986826262101 -1.48055316487781E-05 
! Gamma         50               0                
! Port Impedance         50               0                
1.41253754462275E-08           0.999986826262101 -1.66120797356807E-05 
! Gamma         50               0                
! Port Impedance         50               0                
1.58489319246111E-08           0.999986826262101 -1.86390600277694E-05 
! Gamma         50               0                
! Port Impedance         50               0                
1.77827941003892E-08           0.999986826262101 -2.09133693219994E-05 
! Gamma         50               0                
! Port Impedance         50               0                
1.99526231496888E-08           0.999986826262101 -2.34651863209158E-05 
! Gamma         50               0                
! Port Impedance         50               0                
2.23872113856834E-08           0.9999868262621  -2.63283720857014E-05 
! Gamma         50               0                
! Port Impedance         50               0                
2.51188643150958E-08           0.9999868262621  -2.95409193518856E-05 
! Gamma         50               0                
! Port Impedance         50               0                
2.81838293126445E-08           0.999986826262099 -3.31454566698615E-05 
! Gamma         50               0                
! Port Impedance         50               0                
3.16227766016838E-08           0.999986826262098 -3.71898140598505E-05 
! Gamma         50               0                
! Port Impedance         50               0                
3.54813389233575E-08           0.999986826262097 -4.17276576872106E-05 
! Gamma         50               0                
! Port Impedance         50               0                
3.98107170553497E-08           0.999986826262095 -4.68192019798451E-05 
! Gamma         50               0                
! Port Impedance         50               0                
4.46683592150963E-08           0.999986826262094 -5.25320086370767E-05 
! Gamma         50               0                
! Port Impedance         50               0                
5.01187233627272E-08           0.999986826262091 -5.89418831323495E-05 
! Gamma         50               0                
! Port Impedance         50               0                
5.62341325190349E-08           0.999986826262088 -6.61338806058047E-05 
! Gamma         50               0                
! Port Impedance         50               0                
6.30957344480193E-08           0.999986826262085 -7.4203434494314E-05 
! Gamma         50               0                
! Port Impedance         50               0                
7.07945784384138E-08           0.999986826262081 -8.32576228752052E-05 
! Gamma         50               0                
! Port Impedance         50               0                
7.94328234724281E-08           0.999986826262075 -9.34165893272905E-05 
! Gamma         50               0                
! Port Impedance         50               0                
8.91250938133746E-08           0.999986826262068 -0.000104815137163164 
! Gamma         50               0                
! Port Impedance         50               0                
1E-07                          0.999986826262059 -0.000117604518187255 
! Gamma         50               0                
! Port Impedance         50               0                
1.12201845430196E-07           0.999986826262048 -0.000131954439715383 
! Gamma         50               0                
! Port Impedance         50               0                
1.25892541179417E-07           0.999986826262034 -0.000148055316487723 
! Gamma         50               0                
! Port Impedance         50               0                
1.41253754462275E-07           0.999986826262016 -0.000166120797356727 
! Gamma         50               0                
! Port Impedance         50               0                
1.58489319246111E-07           0.999986826261993 -0.000186390600277581 
! Gamma         50               0                
! Port Impedance         50               0                
1.77827941003892E-07           0.999986826261965 -0.000209133693219832 
! Gamma         50               0                
! Port Impedance         50               0                
1.99526231496888E-07           0.99998682626193 -0.00023465186320893 
! Gamma         50               0                
! Port Impedance         50               0                
2.23872113856834E-07           0.999986826261885 -0.000263283720856693 
! Gamma         50               0                
! Port Impedance         50               0                
2.51188643150958E-07           0.999986826261829 -0.000295409193518402 
! Gamma         50               0                
! Port Impedance         50               0                
2.81838293126445E-07           0.999986826261758 -0.000331454566697974 
! Gamma         50               0                
! Port Impedance         50               0                
3.16227766016838E-07           0.999986826261669 -0.000371898140597599 
! Gamma         50               0                
! Port Impedance         50               0                
3.54813389233575E-07           0.999986826261557 -0.000417276576870826 
! Gamma         50               0                
! Port Impedance         50               0                
3.98107170553497E-07           0.999986826261415 -0.000468192019796644 
! Gamma         50               0                
! Port Impedance         50               0                
4.46683592150963E-07           0.999986826261238 -0.000525320086368214 
! Gamma         50               0                
! Port Impedance         50               0                
5.01187233627272E-07           0.999986826261014 -0.000589418831319888 
! Gamma         50               0                
! Port Impedance         50               0                
5.62341325190349E-07           0.999986826260732 -0.000661338806052952 
! Gamma         50               0                
! Port Impedance         50               0                
6.30957344480193E-07           0.999986826260377 -0.000742034344935943 
! Gamma         50               0                
! Port Impedance         50               0                
7.07945784384138E-07           0.99998682625993 -0.000832576228741886 
! Gamma         50               0                
! Port Impedance         50               0                
7.94328234724281E-07           0.999986826259368 -0.000934165893258545 
! Gamma         50               0                
! Port Impedance         50               0                
8.91250938133746E-07           0.99998682625866 -0.00104815137161135 
! Gamma         50               0                
! Port Impedance         50               0                
1E-06                          0.999986826257769 -0.0011760451818439 
! Gamma         50               0                
! Port Impedance         50               0                
1.12201845430196E-06           0.999986826256647 -0.00131954439711336 
! Gamma         50               0                
! Port Impedance         50               0                
1.25892541179417E-06           0.999986826255235 -0.00148055316482007 
! Gamma         50               0                
! Port Impedance         50               0                
1.41253754462275E-06           0.999986826253457 -0.00166120797348652 
! Gamma         50               0                
! Port Impedance         50               0                
1.58489319246111E-06           0.999986826251218 -0.00186390600266175 
! Gamma         50               0                
! Port Impedance         50               0                
1.77827941003892E-06           0.9999868262484  -0.00209133693203721 
! Gamma         50               0                
! Port Impedance         50               0                
1.99526231496888E-06           0.999986826244852 -0.00234651863186172 
! Gamma         50               0                
! Port Impedance         50               0                
2.23872113856834E-06           0.999986826240385 -0.00263283720824547 
! Gamma         50               0                
! Port Impedance         50               0                
2.51188643150958E-06           0.999986826234763 -0.00295409193472995 
! Gamma         50               0                
! Port Impedance         50               0                
2.81838293126445E-06           0.999986826227684 -0.00331454566633834 
! Gamma         50               0                
! Port Impedance         50               0                
3.16227766016838E-06           0.999986826218772 -0.00371898140507 
! Gamma         50               0                
! Port Impedance         50               0                
3.54813389233575E-06           0.999986826207553 -0.00417276576742851 
! Gamma         50               0                
! Port Impedance         50               0                
3.98107170553497E-06           0.999986826193428 -0.00468192019615874 
! Gamma         50               0                
! Port Impedance         50               0                
4.46683592150963E-06           0.999986826175647 -0.0052532008611287 
! Gamma         50               0                
! Port Impedance         50               0                
5.01187233627272E-06           0.999986826153262 -0.00589418830959206 
! Gamma         50               0                
! Port Impedance         50               0                
5.62341325190349E-06           0.99998682612508 -0.00661338805543474 
! Gamma         50               0                
! Port Impedance         50               0                
6.30957344480193E-06           0.999986826089601 -0.00742034344216288 
! Gamma         50               0                
! Port Impedance         50               0                
7.07945784384138E-06           0.999986826044936 -0.00832576227725345 
! Gamma         50               0                
! Port Impedance         50               0                
7.94328234724281E-06           0.999986825988707 -0.00934165891822643 
! Gamma         50               0                
! Port Impedance         50               0                
8.91250938133746E-06           0.999986825917918 -0.0104815136958309 
! Gamma         50               0                
! Port Impedance         50               0                
1E-05                          0.999986825828799 -0.011760451789789 
! Gamma         50               0                
! Port Impedance         50               0                
1.12201845430196E-05           0.999986825716606 -0.0131954439306643 
! Gamma         50               0                
! Port Impedance         50               0                
1.25892541179417E-05           0.999986825575363 -0.0148055315910364 
! Gamma         50               0                
! Port Impedance         50               0                
1.41253754462276E-05           0.99998682539755 -0.0166120796541185 
! Gamma         50               0                
! Port Impedance         50               0                
1.58489319246111E-05           0.999986825173694 -0.0186390599125597 
! Gamma         50               0                
! Port Impedance         50               0                
1.77827941003892E-05           0.999986824891878 -0.0209133691592613 
! Gamma         50               0                
! Port Impedance         50               0                
1.99526231496888E-05           0.999986824537091 -0.0234651860910421 
! Gamma         50               0                
! Port Impedance         50               0                
2.23872113856834E-05           0.999986824090441 -0.0263283717609962 
! Gamma         50               0                
! Port Impedance         50               0                
2.51188643150958E-05           0.999986823528141 -0.0295409188932274 
! Gamma         50               0                
! Port Impedance         50               0                
2.81838293126445E-05           0.999986822820247 -0.0331454560219896 
! Gamma         50               0                
! Port Impedance         50               0                
3.16227766016838E-05           0.999986821929059 -0.0371898131447072 
! Gamma         50               0                
! Port Impedance         50               0                
3.54813389233575E-05           0.999986820807118 -0.0417276563945364 
! Gamma         50               0                
! Port Impedance         50               0                
3.98107170553497E-05           0.999986819394674 -0.0468192001538946 
! Gamma         50               0                
! Port Impedance         50               0                
4.46683592150963E-05           0.999986817616507 -0.0525320060578536 
! Gamma         50               0                
! Port Impedance         50               0                
5.01187233627273E-05           0.999986815377919 -0.0589418794891008 
! Gamma         50               0                
! Port Impedance         50               0                
5.62341325190349E-05           0.999986812559689 -0.0661338754595807 
! Gamma         50               0                
! Port Impedance         50               0                
6.30957344480193E-05           0.999986809011725 -0.0742034272250823 
! Gamma         50               0                
! Port Impedance         50               0                
7.07945784384137E-05           0.999986804545068 -0.0832576126071474 
! Gamma         50               0                
! Port Impedance         50               0                
7.94328234724282E-05           0.999986798921823 -0.0934165748232824 
! Gamma         50               0                
! Port Impedance         50               0                
8.91250938133746E-05           0.999986791842487 -0.104815116675723 
! Gamma         50               0                
! Port Impedance         50               0                
0.0001                         0.99998678292999 -0.117604489248005 
! Gamma         50               0                
! Port Impedance         50               0                
0.000112201845430196           0.999986771709597 -0.131954398837655 
! Gamma         50               0                
! Port Impedance         50               0                
0.000125892541179417           0.999986757583602 -0.148055258746487 
! Gamma         50               0                
