! Touchstone file exported from HFSS 2024.2.0
!        File:           C:/00_Asenjo/00_Project/Ketupa/simulation/Ansys_HFSS/HFSS_Projects/Wifi_patch_antenna.aedt
!        Generated:      06:15:14 PM Jul 11, 2025
!        Design:         wifi_2.4G
!        Project:        Wifi_patch_antenna
!        Setup:          Setup1
!        Solution:       Sweep
!
! Variables:
!        L_50ohm = 8mm
!        L_ant = 41mm
!        L_lamda = 9.5mm
!        L_open = 4mm
!        T_HOZ_Plating = 40um
!        W_50ohm = 3.2mm
!        W_ant = 32.5mm
!        W_lamda = 3.2mm
!        W_open = 9.5mm
!        X_0 = 15mm
!        Y_0 = 15mm
!        lamda = 122mm
!        subH = 1.5mm
!        subX = 70mm
!        subY = 70mm
!
# GHz S MA R 50.000000
! Terminal data exported
! Port[1] = Ant_T1
0                              1.00002359106031 0                
! Gamma         50               0                
! Port Impedance         50               0                
1E-09                          1.00002359106031 -1.07166952602359E-06 
! Gamma         50               0                
! Port Impedance         50               0                
1.12201845430196E-09           1.00002359106031 -1.2024329851115E-06 
! Gamma         50               0                
! Port Impedance         50               0                
1.25892541179417E-09           1.00002359106031 -1.3491519993565E-06 
! Gamma         50               0                
! Port Impedance         50               0                
1.41253754462275E-09           1.00002359106031 -1.51377344093639E-06 
! Gamma         50               0                
! Port Impedance         50               0                
1.58489319246111E-09           1.00002359106031 -1.69848173636281E-06 
! Gamma         50               0                
! Port Impedance         50               0                
1.77827941003892E-09           1.00002359106031 -1.90572785249392E-06 
! Gamma         50               0                
! Port Impedance         50               0                
1.99526231496888E-09           1.00002359106031 -2.13826181937542E-06 
! Gamma         50               0                
! Port Impedance         50               0                
2.23872113856834E-09           1.00002359106031 -2.39916922146852E-06 
! Gamma         50               0                
! Port Impedance         50               0                
2.51188643150958E-09           1.00002359106031 -2.69191214148095E-06 
! Gamma         50               0                
! Port Impedance         50               0                
2.81838293126445E-09           1.00002359106031 -3.02037510010114E-06 
! Gamma         50               0                
! Port Impedance         50               0                
3.16227766016838E-09           1.00002359106031 -3.38891660122762E-06 
! Gamma         50               0                
! Port Impedance         50               0                
3.54813389233575E-09           1.00002359106031 -3.80242696666768E-06 
! Gamma         50               0                
! Port Impedance         50               0                
3.98107170553497E-09           1.00002359106031 -4.26639322773657E-06 
! Gamma         50               0                
! Port Impedance         50               0                
4.46683592150963E-09           1.00002359106031 -4.78697193482935E-06 
! Gamma         50               0                
! Port Impedance         50               0                
5.01187233627272E-09           1.00002359106031 -5.37107085110411E-06 
! Gamma         50               0                
! Port Impedance         50               0                
5.62341325190349E-09           1.00002359106031 -6.02644061430216E-06 
! Gamma         50               0                
! Port Impedance         50               0                
6.30957344480193E-09           1.00002359106031 -6.76177758300188E-06 
! Gamma         50               0                
! Port Impedance         50               0                
7.07945784384138E-09           1.00002359106031 -7.58683923201343E-06 
! Gamma         50               0                
! Port Impedance         50               0                
7.94328234724282E-09           1.00002359106031 -8.5125736281412E-06 
! Gamma         50               0                
! Port Impedance         50               0                
8.91250938133745E-09           1.00002359106031 -9.55126470437864E-06 
! Gamma         50               0                
! Port Impedance         50               0                
1E-08                          1.00002359106031 -1.07166952602358E-05 
! Gamma         50               0                
! Port Impedance         50               0                
1.12201845430196E-08           1.00002359106031 -1.20243298511149E-05 
! Gamma         50               0                
! Port Impedance         50               0                
1.25892541179417E-08           1.00002359106031 -1.34915199935649E-05 
! Gamma         50               0                
! Port Impedance         50               0                
1.41253754462275E-08           1.00002359106031 -1.51377344093637E-05 
! Gamma         50               0                
! Port Impedance         50               0                
1.58489319246111E-08           1.00002359106031 -1.69848173636279E-05 
! Gamma         50               0                
! Port Impedance         50               0                
1.77827941003892E-08           1.00002359106031 -1.90572785249388E-05 
! Gamma         50               0                
! Port Impedance         50               0                
1.99526231496888E-08           1.00002359106031 -2.13826181937538E-05 
! Gamma         50               0                
! Port Impedance         50               0                
2.23872113856834E-08           1.00002359106031 -2.39916922146845E-05 
! Gamma         50               0                
! Port Impedance         50               0                
2.51188643150958E-08           1.0000235910603  -2.69191214148085E-05 
! Gamma         50               0                
! Port Impedance         50               0                
2.81838293126445E-08           1.0000235910603  -3.02037510010101E-05 
! Gamma         50               0                
! Port Impedance         50               0                
3.16227766016838E-08           1.0000235910603  -3.38891660122743E-05 
! Gamma         50               0                
! Port Impedance         50               0                
3.54813389233575E-08           1.0000235910603  -3.80242696666741E-05 
! Gamma         50               0                
! Port Impedance         50               0                
3.98107170553497E-08           1.00002359106029 -4.26639322773619E-05 
! Gamma         50               0                
! Port Impedance         50               0                
4.46683592150963E-08           1.00002359106029 -4.78697193482881E-05 
! Gamma         50               0                
! Port Impedance         50               0                
5.01187233627272E-08           1.00002359106028 -5.37107085110334E-05 
! Gamma         50               0                
! Port Impedance         50               0                
5.62341325190349E-08           1.00002359106028 -6.02644061430108E-05 
! Gamma         50               0                
! Port Impedance         50               0                
6.30957344480193E-08           1.00002359106027 -6.76177758300035E-05 
! Gamma         50               0                
! Port Impedance         50               0                
7.07945784384138E-08           1.00002359106025 -7.58683923201128E-05 
! Gamma         50               0                
! Port Impedance         50               0                
7.94328234724281E-08           1.00002359106024 -8.51257362813815E-05 
! Gamma         50               0                
! Port Impedance         50               0                
8.91250938133746E-08           1.00002359106022 -9.55126470437433E-05 
! Gamma         50               0                
! Port Impedance         50               0                
1E-07                          1.00002359106019 -0.000107166952602297 
! Gamma         50               0                
! Port Impedance         50               0                
1.12201845430196E-07           1.00002359106016 -0.000120243298511064 
! Gamma         50               0                
! Port Impedance         50               0                
1.25892541179417E-07           1.00002359106013 -0.000134915199935528 
! Gamma         50               0                
! Port Impedance         50               0                
1.41253754462275E-07           1.00002359106008 -0.000151377344093466 
! Gamma         50               0                
! Port Impedance         50               0                
1.58489319246111E-07           1.00002359106002 -0.000169848173636037 
! Gamma         50               0                
! Port Impedance         50               0                
1.77827941003892E-07           1.00002359105994 -0.000190572785249046 
! Gamma         50               0                
! Port Impedance         50               0                
1.99526231496888E-07           1.00002359105984 -0.000213826181937055 
! Gamma         50               0                
! Port Impedance         50               0                
2.23872113856834E-07           1.00002359105972 -0.000239916922146163 
! Gamma         50               0                
! Port Impedance         50               0                
2.51188643150958E-07           1.00002359105957 -0.000269191214147122 
! Gamma         50               0                
! Port Impedance         50               0                
2.81838293126445E-07           1.00002359105937 -0.00030203751000874 
! Gamma         50               0                
! Port Impedance         50               0                
3.16227766016838E-07           1.00002359105913 -0.000338891660120821 
! Gamma         50               0                
! Port Impedance         50               0                
3.54813389233575E-07           1.00002359105883 -0.000380242696664026 
! Gamma         50               0                
! Port Impedance         50               0                
3.98107170553497E-07           1.00002359105844 -0.000426639322769784 
! Gamma         50               0                
! Port Impedance         50               0                
4.46683592150963E-07           1.00002359105796 -0.000478697193477464 
! Gamma         50               0                
! Port Impedance         50               0                
5.01187233627272E-07           1.00002359105735 -0.000537107085102683 
! Gamma         50               0                
! Port Impedance         50               0                
5.62341325190349E-07           1.00002359105658 -0.000602644061419299 
! Gamma         50               0                
! Port Impedance         50               0                
6.30957344480193E-07           1.00002359105561 -0.000676177758284768 
! Gamma         50               0                
! Port Impedance         50               0                
7.07945784384138E-07           1.0000235910544  -0.000758683923179562 
! Gamma         50               0                
! Port Impedance         50               0                
7.94328234724281E-07           1.00002359105287 -0.000851257362783353 
! Gamma         50               0                
! Port Impedance         50               0                
8.91250938133746E-07           1.00002359105094 -0.000955126470394404 
! Gamma         50               0                
! Port Impedance         50               0                
1E-06                          1.00002359104851 -0.00107166952596219 
! Gamma         50               0                
! Port Impedance         50               0                
1.12201845430196E-06           1.00002359104545 -0.00120243298502478 
! Gamma         50               0                
! Port Impedance         50               0                
1.25892541179417E-06           1.00002359104161 -0.00134915199923401 
! Gamma         50               0                
! Port Impedance         50               0                
1.41253754462275E-06           1.00002359103676 -0.00151377344076336 
! Gamma         50               0                
! Port Impedance         50               0                
1.58489319246111E-06           1.00002359103067 -0.0016984817361184 
! Gamma         50               0                
! Port Impedance         50               0                
1.77827941003892E-06           1.00002359102299 -0.00190572785214867 
! Gamma         50               0                
! Port Impedance         50               0                
1.99526231496888E-06           1.00002359101333 -0.00213826181888775 
! Gamma         50               0                
! Port Impedance         50               0                
2.23872113856834E-06           1.00002359100116 -0.00239916922077966 
! Gamma         50               0                
! Port Impedance         50               0                
2.51188643150958E-06           1.00002359098585 -0.00269191214050792 
! Gamma         50               0                
! Port Impedance         50               0                
2.81838293126445E-06           1.00002359096657 -0.0030203750987267 
! Gamma         50               0                
! Port Impedance         50               0                
3.16227766016838E-06           1.00002359094229 -0.00338891659928617 
! Gamma         50               0                
! Port Impedance         50               0                
3.54813389233575E-06           1.00002359091173 -0.0038024269639253 
! Gamma         50               0                
! Port Impedance         50               0                
3.98107170553497E-06           1.00002359087326 -0.00426639322386286 
! Gamma         50               0                
! Port Impedance         50               0                
4.46683592150963E-06           1.00002359082483 -0.00478697192935758 
! Gamma         50               0                
! Port Impedance         50               0                
5.01187233627272E-06           1.00002359076386 -0.00537107084337503 
! Gamma         50               0                
! Port Impedance         50               0                
5.62341325190349E-06           1.0000235906871  -0.00602644060338454 
! Gamma         50               0                
! Port Impedance         50               0                
6.30957344480193E-06           1.00002359059047 -0.00676177756758033 
! Gamma         50               0                
! Port Impedance         50               0                
7.07945784384138E-06           1.00002359046881 -0.00758683921022993 
! Gamma         50               0                
! Port Impedance         50               0                
7.94328234724281E-06           1.00002359031566 -0.00851257359737117 
! Gamma         50               0                
! Port Impedance         50               0                
8.91250938133746E-06           1.00002359012285 -0.00955126466091482 
! Gamma         50               0                
! Port Impedance         50               0                
1E-05                          1.00002358988012 -0.0107166951988415 
! Gamma         50               0                
! Port Impedance         50               0                
1.12201845430196E-05           1.00002358957453 -0.0120243297643932 
! Gamma         50               0                
! Port Impedance         50               0                
1.25892541179417E-05           1.00002358918983 -0.0134915198710672 
! Gamma         50               0                
! Port Impedance         50               0                
1.41253754462276E-05           1.00002358870551 -0.0151377342363311 
! Gamma         50               0                
! Port Impedance         50               0                
1.58489319246111E-05           1.00002358809579 -0.0169848171192129 
! Gamma         50               0                
! Port Impedance         50               0                
1.77827941003892E-05           1.00002358732821 -0.0190572781796935 
! Gamma         50               0                
! Port Impedance         50               0                
1.99526231496888E-05           1.00002358636187 -0.0213826177060817 
! Gamma         50               0                
! Port Impedance         50               0                
2.23872113856834E-05           1.00002358514532 -0.0239916915258294 
! Gamma         50               0                
! Port Impedance         50               0                
2.51188643150958E-05           1.00002358361377 -0.026919120441775 
! Gamma         50               0                
! Port Impedance         50               0                
2.81838293126445E-05           1.00002358168567 -0.0302037496265637 
! Gamma         50               0                
! Port Impedance         50               0                
3.16227766016838E-05           1.00002357925833 -0.0338891640708173 
! Gamma         50               0                
! Port Impedance         50               0                
3.54813389233575E-05           1.00002357620249 -0.0380242669242933 
! Gamma         50               0                
! Port Impedance         50               0                
3.98107170553497E-05           1.00002357235541 -0.0426639284036465 
! Gamma         50               0                
! Port Impedance         50               0                
4.46683592150963E-05           1.00002356751222 -0.0478697138765203 
! Gamma         50               0                
! Port Impedance         50               0                
5.01187233627273E-05           1.00002356141498 -0.053710700781957 
! Gamma         50               0                
! Port Impedance         50               0                
5.62341325190349E-05           1.00002355373899 -0.0602643952254019 
! Gamma         50               0                
! Port Impedance         50               0                
6.30957344480193E-05           1.00002354407547 -0.0676177604084743 
! Gamma         50               0                
! Port Impedance         50               0                
7.07945784384137E-05           1.00002353190976 -0.0758683705366295 
! Gamma         50               0                
! Port Impedance         50               0                
7.94328234724282E-05           1.00002351659395 -0.0851257055114041 
! Gamma         50               0                
! Port Impedance         50               0                
8.91250938133746E-05           1.00002349731237 -0.0955126035800132 
! Gamma         50               0                
! Port Impedance         50               0                
0.0001                         1.00002347303808 -0.107166891208179 
! Gamma         50               0                
! Port Impedance         50               0                
0.000112201845430196           1.00002344247824 -0.120243211789625 
! Gamma         50               0                
! Port Impedance         50               0                
0.000125892541179417           1.00002340400516 -0.134915077438343 
! Gamma         50               0                
! Port Impedance         50               0                
