"Freq [GHz]","dB(St(Microstrip_1B_T1,Microstrip_1B_T1)) []","dB(St(Microstrip_1B_T2,Microstrip_1B_T1)) []"
0,-57.2802465375032,-0.0114164824002574
1E-09,-57.2802465375316,-0.0114164824003607
1.12201845430196E-09,-57.2802465379236,-0.0114164824011622
1.25892541179417E-09,-57.2802465375759,-0.0114164824004399
1.41253754462275E-09,-57.2802465373277,-0.0114164824001473
1.58489319246111E-09,-57.2802465377803,-0.0114164824010444
1.77827941003892E-09,-57.280246537245,-0.0114164824004399
1.99526231496888E-09,-57.2802465373654,-0.0114164824001483
2.23872113856834E-09,-57.2802465374122,-0.011416482400268
2.51188643150958E-09,-57.2802465374754,-0.0114164824007412
2.81838293126445E-09,-57.2802465372011,-0.0114164824001937
3.16227766016838E-09,-57.2802465375173,-0.0114164824005645
3.54813389233575E-09,-57.2802465375715,-0.0114164824003511
3.98107170553497E-09,-57.2802465377507,-0.0114164824005075
4.46683592150963E-09,-57.2802465373438,-0.0114164824000643
5.01187233627272E-09,-57.2802465380098,-0.011416482401167
5.62341325190349E-09,-57.2802465375298,-0.0114164824006494
6.30957344480193E-09,-57.2802465373929,-0.0114164824004013
7.07945784384138E-09,-57.2802465376656,-0.0114164824004496
7.94328234724282E-09,-57.2802465374642,-0.0114164824001676
8.91250938133745E-09,-57.2802465377262,-0.0114164824006543
1E-08,-57.2802465382673,-0.0114164824011023
1.12201845430196E-08,-57.2802465377423,-0.0114164824007614
1.25892541179417E-08,-57.2802465371491,-0.011416482400158
1.41253754462275E-08,-57.2802465374308,-0.0114164824003337
1.58489319246111E-08,-57.2802465373145,-0.0114164824003897
1.77827941003892E-08,-57.2802465369281,-0.0114164824000064
1.99526231496888E-08,-57.2802465373575,-0.0114164823999378
2.23872113856834E-08,-57.280246537676,-0.0114164824007277
2.51188643150958E-08,-57.2802465374118,-0.0114164824004882
2.81838293126445E-08,-57.2802465376514,-0.0114164824008078
3.16227766016838E-08,-57.2802465377888,-0.0114164824007711
3.54813389233575E-08,-57.2802465374129,-0.0114164824007035
3.98107170553497E-08,-57.280246537344,-0.0114164824006147
4.46683592150963E-08,-57.2802465376148,-0.0114164824012085
5.01187233627272E-08,-57.2802465380101,-0.0114164824018777
5.62341325190349E-08,-57.2802465381822,-0.0114164824021712
6.30957344480193E-08,-57.2802465377029,-0.01141648240184
7.07945784384138E-08,-57.2802465376931,-0.0114164824023054
7.94328234724281E-08,-57.2802465374247,-0.0114164824024059
8.91250938133746E-08,-57.2802465372778,-0.0114164824027158
1E-07,-57.280246537712,-0.0114164824042521
1.12201845430196E-07,-57.2802465372885,-0.0114164824044278
1.25892541179417E-07,-57.2802465375485,-0.0114164824057256
1.41253754462275E-07,-57.2802465377625,-0.0114164824070233
1.58489319246111E-07,-57.2802465376767,-0.0114164824090492
1.77827941003892E-07,-57.2802465375127,-0.0114164824108104
1.99526231496888E-07,-57.2802465366624,-0.0114164824122965
2.23872113856834E-07,-57.2802465376967,-0.0114164824170124
2.51188643150958E-07,-57.2802465372211,-0.0114164824209212
2.81838293126445E-07,-57.2802465372843,-0.0114164824260388
3.16227766016838E-07,-57.2802465373936,-0.0114164824329988
3.54813389233575E-07,-57.2802465368431,-0.0114164824409032
3.98107170553497E-07,-57.2802465368965,-0.0114164824518222
4.46683592150963E-07,-57.2802465370392,-0.0114164824655693
5.01187233627272E-07,-57.2802465366496,-0.011416482482195
5.62341325190349E-07,-57.2802465363289,-0.0114164825029698
6.30957344480193E-07,-57.280246535968,-0.0114164825294358
7.07945784384138E-07,-57.2802465357618,-0.011416482562998
7.94328234724281E-07,-57.2802465358539,-0.0114164826058163
8.91250938133746E-07,-57.2802465348243,-0.0114164826587319
1E-06,-57.2802465338293,-0.0114164827250153
1.12201845430196E-06,-57.2802465336511,-0.0114164828100968
1.25892541179417E-06,-57.2802465323572,-0.0114164829161047
1.41253754462275E-06,-57.2802465316358,-0.0114164830505804
1.58489319246111E-06,-57.2802465293066,-0.0114164832172857
1.77827941003892E-06,-57.2802465269657,-0.0114164834287685
1.99526231496888E-06,-57.2802465245865,-0.0114164836956119
2.23872113856834E-06,-57.2802465215478,-0.0114164840312906
2.51188643150958E-06,-57.2802465173771,-0.0114164844538295
2.81838293126445E-06,-57.2802465123354,-0.0114164849852462
3.16227766016838E-06,-57.280246505479,-0.0114164856543461
3.54813389233575E-06,-57.2802464972342,-0.0114164864967521
3.98107170553497E-06,-57.2802464868781,-0.0114164875575441
4.46683592150963E-06,-57.280246473797,-0.0114164888927023
5.01187233627272E-06,-57.280246457369,-0.0114164905743502
5.62341325190349E-06,-57.2802464367287,-0.011416492691079
6.30957344480193E-06,-57.2802464106326,-0.0114164953548836
7.07945784384138E-06,-57.280246378377,-0.0114164987099871
7.94328234724281E-06,-57.2802463365097,-0.0114165029318751
8.91250938133746E-06,-57.2802462854742,-0.0114165082492508
1E-05,-57.2802462208266,-0.0114165149419468
1.12201845430196E-05,-57.2802461385866,-0.0114165233671321
1.25892541179417E-05,-57.280246036776,-0.0114165339745379
1.41253754462276E-05,-57.280245909498,-0.0114165473295417
1.58489319246111E-05,-57.2802457489716,-0.0114165641408126
1.77827941003892E-05,-57.2802455489111,-0.0114165853053196
1.99526231496888E-05,-57.2802452993047,-0.0114166119498339
2.23872113856834E-05,-57.2802449898291,-0.0114166454941492
2.51188643150958E-05,-57.2802446057462,-0.0114166877234939
2.81838293126445E-05,-57.280244132146,-0.0114167408870362
3.16227766016838E-05,-57.2802435499667,-0.011416807814258
3.54813389233575E-05,-57.280242842426,-0.0114168920718504
3.98107170553497E-05,-57.2802419911331,-0.0114169981472969
4.46683592150963E-05,-57.2802409798558,-0.0114171316870166
5.01187233627273E-05,-57.2802398044708,-0.0114172998043743
5.62341325190349E-05,-57.2802384782191,-0.0114175114510009
6.30957344480193E-05,-57.2802370525444,-0.0114177778985008
7.07945784384137E-05,-57.2802356439607,-0.0114181133364191
7.94328234724282E-05,-57.2802344813167,-0.0114185356272701
8.91250938133746E-05,-57.2802339866021,-0.0114190672614937
0.0001,-57.2802348958186,-0.0114197365504623
0.000112201845430196,-57.2802384645851,-0.0114205791356375
0.000125892541179417,-57.2802467910514,-0.0114216398893229
0.000141253754462276,-57.2802633338048,-0.0114229753024239
0.000158489319246111,-57.2802937311452,-0.0114246564925734
0.000177827941003892,-57.280347104685,-0.0114267729930235
0.000199526231496888,-57.2804381097125,-0.0114294375214586
0.000223872113856834,-57.280590158039,-0.0114327919820582
0.000251188643150958,-57.2808404668919,-0.0114370150278211
0.000281838293126446,-57.2812479052912,-0.0114423315742552
0.000316227766016838,-57.2819051331411,-0.0114490247848254
0.000354813389233575,-57.2829572108491,-0.0114574511533381
0.000398107170553497,-57.2846298352572,-0.0114680595096756
0.000446683592150963,-57.2872715504314,-0.011481414932033
0.000501187233627273,-57.2914156119579,-0.0114982288740906
0.000562341325190349,-57.2978680045535,-0.0115193971004134
0.000630957344480193,-57.3078270074241,-0.0115460474605577
0.000707945784384137,-57.3230328629272,-0.0115796000675397
0.000794328234724282,-57.3459246519233,-0.0116218430997932
0.000891250938133746,-57.3797242446096,-0.0116750282881317
0.001,-57.4282238616477,-0.011741995278463
0.00112201845430196,-57.4830871361097,-0.0118246023581229
0.00125892541179417,-57.522094809537,-0.0119216297039159
0.00141253754462276,-57.5308542847425,-0.0120307718304547
0.00158489319246111,-57.500280131052,-0.0121487941913244
0.00177827941003892,-57.4281918353188,-0.0122721784074647
0.00199526231496888,-57.3195613679505,-0.0123977271194443
0.00223872113856834,-57.1852489603554,-0.0125230365589455
0.00251188643150958,-57.0395866904015,-0.0126467876778955
0.00281838293126445,-56.8974834359022,-0.0127688362064516
0.00316227766016838,-56.7717132598721,-0.012890098299601
0.00354813389233575,-56.670834642813,-0.013012243317447
0.00398107170553497,-56.5979667122228,-0.0131372328491438
0.00446683592150963,-56.550529217976,-0.0132667897302888
0.00501187233627272,-56.5210227716302,-0.0134019273803441
0.00562341325190349,-56.4988959817577,-0.0135426868573121
0.00630957344480193,-56.4734075435676,-0.0136881912205388
0.00707945784384137,-56.4370825685894,-0.013837040078672
0.00794328234724282,-56.3889511876158,-0.0139879685497309
0.00891250938133746,-56.3364566094595,-0.014140619186524
0.01,-56.2949546489911,-0.0142962209230903
0.0112201845430196,-56.2841740001809,-0.0144579123224312
0.0125892541179417,-56.3218313775452,-0.0146304308540129
0.0141253754462276,-56.4157393106676,-0.0148190828693388
0.0158489319246111,-56.5569023352362,-0.0150283816972899
0.0177827941003892,-56.7166061581119,-0.0152611033887381
0.0199526231496888,-56.8500290549086,-0.015518231039349
0.0223872113856834,-56.9077625113784,-0.0157995749846351
0.0251188643150958,-56.8543822563063,-0.0161045423795557
0.0281838293126445,-56.6885959833163,-0.0164327355895944
0.0316227766016838,-56.4543162716062,-0.016784326131407
0.0354813389233575,-56.231010729092,-0.017160279366833
0.0398107170553497,-56.0963069064816,-0.0175626627176772
0.0446683592150963,-56.0721577298804,-0.0179953660086759
0.0501187233627272,-56.108228864655,-0.0184649472672193
0.0562341325190349,-56.1429589862061,-0.0189804546930752
0.0630957344480193,-56.1585111142495,-0.0195521268726538
0.0707945784384137,-56.1603280003112,-0.020190551877369
0.0794328234724282,-56.1472815039941,-0.0209070659686716
0.0891250938133746,-56.1106814726166,-0.0217147851055541
0.1,-56.0412002633388,-0.0226297320041547
0.11,-56.2043452749068,-0.0228875034973926
0.12,-56.3494039163699,-0.0231717252898605
0.13,-56.4722182884516,-0.0234826576352178
0.14,-56.5715595575967,-0.0238202069146182
0.15,-56.6480468288243,-0.0241840711085992
0.16,-56.7033855888895,-0.02457382920693
0.17,-56.7398417613089,-0.0249889941373959
0.18,-56.7598893824406,-0.0254290431917891
0.19,-56.7659849826453,-0.0258934350284593
0.2,-56.760432625942,-0.0263816188672037
0.21,-56.7453119793773,-0.026893039252288
0.22,-56.7224485930253,-0.0274271383730908
0.23,-56.6934111101922,-0.0279833570964046
0.24,-56.6595245426917,-0.0285611353677294
0.25,-56.6218921554788,-0.0291599123474599
0.26,-56.5814210465974,-0.0297791264785715
0.27,-56.5388483368386,-0.030418215584813
0.28,-56.4947661538284,-0.0310766170436606
0.29,-56.4496444468624,-0.0317537680477712
0.3,-56.4038512179773,-0.0324491059528831
0.31,-56.3576700929386,-0.0331620687021178
0.32,-56.3113153513296,-0.0338920953134974
0.33,-56.2649446369235,-0.0346386264166789
0.34,-56.2186696127331,-0.0354011048256625
0.35,-56.1725648325016,-0.0361789761351297
0.36,-56.1266750877428,-0.036971689329777
0.37,-56.0810214661921,-0.0377786973972855
0.38,-56.0356063303574,-0.038599457936977
0.39,-55.9904173967395,-0.0394334337575487
0.4,-55.9454310699297,-0.0402800934582222
0.41,-55.9006151616988,-0.041138911988857
0.42,-55.8559311040036,-0.0420093711852745
0.43,-55.8113357465037,-0.0428909602767481
0.44,-55.766782813632,-0.0437831763635379
0.45,-55.7222240830647,-0.0446855248626104
0.46,-55.677610336474,-0.0455975199203152
0.47,-55.6328921242825,-0.0465186847912496
0.48,-55.5880203786224,-0.0474485521828362
0.49,-55.5429469023883,-0.0483866645655188
0.5,-55.4976247572329,-0.0493325744487311
0.51,-55.45200856908,-0.0502858446230238
0.52,-55.4060547663209,-0.051246048368967
0.53,-55.3597217630224,-0.0522127696336483
0.54,-55.3129700971827,-0.0531856031756121
0.55,-55.2657625321816,-0.0541641546794236
0.56,-55.2180641280498,-0.055148040840878
0.57,-55.1698422879327,-0.0561368894242224
0.58,-55.1210667841071,-0.0571303392926187
0.59,-55.0717097670767,-0.0581280404132241
0.6,-55.0217457606497,-0.0591296538383268
0.61,-54.9711516452836,-0.0601348516638492
0.62,-54.9199066316423,-0.0611433169667791
0.63,-54.8679922258702,-0.0621547437228268
0.64,-54.8153921878819,-0.0631688367057926
0.65,-54.762092483686,-0.0641853113700363
0.66,-54.7080812326353,-0.0652038937174046
0.67,-54.6533486502943,-0.0662243201499588
0.68,-54.5978869875626,-0.0672463373098295
0.69,-54.5416904665771,-0.0682697019074361
0.7,-54.484755213837,-0.0692941805393341
0.71,-54.4270791909771,-0.0703195494968421
0.72,-54.3686621235455,-0.0713455945665402
0.73,-54.3095054281237,-0.0723721108238152
0.74,-54.2496121380984,-0.073398902420351
0.75,-54.188986828387,-0.0744257823666835
0.76,-54.1276355393771,-0.0754525723105405
0.77,-54.0655657003672,-0.0764791023120894
0.78,-54.0027860527442,-0.0775052106166238
0.79,-53.9393065731567,-0.0785307434256771
0.8,-53.8751383969118,-0.0795555546671684
0.81,-53.8102937418303,-0.0805795057652033
0.82,-53.7447858327683,-0.0816024654102567
0.83,-53.6786288270229,-0.0826243093301565
0.84,-53.6118377408145,-0.0836449200625283
0.85,-53.5444283770275,-0.0846641867290309
0.86,-53.4764172543978,-0.0856820048119286
0.87,-53.407821538289,-0.0866982759333044
0.88,-53.338658973228,-0.0877129076373275
0.89,-53.2689478173152,-0.0887258131758247
0.9,-53.1987067786494,-0.0897369112974725
0.91,-53.1279549538609,-0.0907461260408872
0.92,-53.0567117688542,-0.0917533865316788
0.93,-52.9849969218392,-0.0927586267838882
0.94,-52.9128303287141,-0.0937617855057103
0.95,-52.840232070857,-0.0947628059098534
0.96,-52.7672223453565,-0.0957616355284503
0.97,-52.6938214177183,-0.0967582260327662
0.98,-52.6200495770551,-0.0977525330576528
0.99,-52.5459270937586,-0.0987445160308716
1,-52.4714741796538,-0.0997341380072229
1.01,-52.3967109506116,-0.100721365507609
1.02,-52.3216573915851,-0.101706168362919
1.03,-52.2463333240499,-0.10268851956276
1.04,-52.1707583757775,-0.103668395109043
1.05,-52.0949519529155,-0.104645773874328
1.06,-52.0189332142982,-0.105620637464872
1.07,-51.9427210479291,-0.106592970088385
1.08,-51.8663340495715,-0.107562758426348
1.09,-51.7897905033633,-0.108529991510912
1.1,-51.7131083643915,-0.109494660606169
1.11,-51.6363052431404,-0.110456759093872
1.12,-51.5593983917364,-0.111416282363343
1.13,-51.4824046919027,-0.112373227705597
1.14,-51.4053406445481,-0.113327594211579
1.15,-51.3282223609054,-0.114279382674322
1.16,-51.2510655551259,-0.115228595495022
1.17,-51.1738855382676,-0.116175236592899
1.18,-51.0966972135752,-0.117119311318692
1.19,-51.0195150729861,-0.11806082637176
1.2,-50.9423531947828,-0.118999789720644
1.21,-50.8652252422994,-0.119936210526964
1.22,-50.7881444636362,-0.1208700990726
1.23,-50.711123692286,-0.121801466690011
1.24,-50.6341753486053,-0.122730325695603
1.25,-50.5573114420866,-0.123656689326044
1.26,-50.4805435743302,-0.124580571677424
1.27,-50.4038829426864,-0.125501987647196
1.28,-50.3273403444894,-0.126420952878698
1.29,-50.2509261818395,-0.127337483708302
1.3,-50.1746504668677,-0.128251597114977
1.31,-50.0985228274433,-0.129163310672257
1.32,-50.0225525132708,-0.130072642502467
1.33,-49.9467484023297,-0.130979611233146
1.34,-49.8711190076202,-0.131884235955591
1.35,-49.7956724841705,-0.132786536185422
1.36,-49.7204166362719,-0.133686531825087
1.37,-49.6453589248984,-0.134584243128243
1.38,-49.5705064752875,-0.135479690665901
1.39,-49.4958660846559,-0.136372895294354
1.4,-49.4214442299967,-0.137263878124675
1.41,-49.3472470759693,-0.13815266049384
1.42,-49.2732804828263,-0.139039263937343
1.43,-49.1995500143706,-0.139923710163263
1.44,-49.1260609459186,-0.140806021027725
1.45,-49.0528182722553,-0.141686218511638
1.46,-48.9798267155545,-0.142564324698784
1.47,-48.907090733255,-0.143440361755002
1.48,-48.8346145258864,-0.144314351908643
1.49,-48.762402044809,-0.145186317432038
1.5,-48.6904569998843,-0.146056280624047
1.51,-48.6187828670491,-0.14692426379367
1.52,-48.5473828957785,-0.147790289244497
1.53,-48.4762601164538,-0.148654379260172
1.54,-48.4054173476,-0.149516556090709
1.55,-48.3348572030084,-0.15037684193958
1.56,-48.2645820987264,-0.15123525895169
1.57,-48.1945942599143,-0.152091829201994
1.58,-48.1248957275677,-0.152946574684938
1.59,-48.055488365096,-0.153799517304499
1.6,-47.9863738647628,-0.154650678864908
1.61,-47.917553753975,-0.155500081062012
1.62,-47.8490294014319,-0.156347745475159
1.63,-47.7808020231261,-0.157193693559711
1.64,-47.7128726881922,-0.158037946640043
1.65,-47.6452423246127,-0.158880525903043
1.66,-47.5779117247763,-0.15972145239212
1.67,-47.5108815508834,-0.160560747001639
1.68,-47.4441523402125,-0.161398430471772
1.69,-47.3777245102364,-0.162234523383811
1.7,-47.3115983635975,-0.163069046155825
1.71,-47.2457740929387,-0.163902019038659
1.72,-47.1802517855962,-0.164733462112337
1.73,-47.115031428148,-0.165563395282782
1.74,-47.0501129108346,-0.166391838278792
1.75,-46.9854960318398,-0.167218810649383
1.76,-46.9211805014344,-0.168044331761363
1.77,-46.857165946002,-0.168868420797179
1.78,-46.7934519119283,-0.169691096753018
1.79,-46.7300378693666,-0.170512378437161
1.8,-46.6669232158844,-0.171332284468478
1.81,-46.6041072799858,-0.17215083327529
1.82,-46.5415893245221,-0.172968043094221
1.83,-46.4793685499833,-0.173783931969425
1.84,-46.4174440976784,-0.174598517751859
1.85,-46.3558150528082,-0.175411818098803
1.86,-46.2944804474327,-0.176223850473484
1.87,-46.2334392633313,-0.177034632144863
1.88,-46.1726904347643,-0.177844180187561
1.89,-46.1122328511332,-0.178652511481929
1.9,-46.0520653595506,-0.1794596427142
1.91,-45.9921867673115,-0.180265590376775
1.92,-45.9325958442743,-0.181070370768653
1.93,-45.8732913251579,-0.181873999995889
1.94,-45.8142719117482,-0.182676493972185
1.95,-45.7555362750224,-0.183477868419603
1.96,-45.6970830571989,-0.184278138869266
1.97,-45.6389108736948,-0.185077320662222
1.98,-45.5810183150237,-0.185875428950358
1.99,-45.5234039486063,-0.18667247869734
2,-45.4660663205162,-0.187468484679653
2.01,-45.4090039571584,-0.18826346148771
2.02,-45.3522153668714,-0.18905742352696
2.03,-45.2956990414737,-0.189850385019104
2.04,-45.2394534577413,-0.190642360003299
2.05,-45.1834770788294,-0.19143336233747
2.06,-45.1277683556262,-0.1922234056996
2.07,-45.0723257280599,-0.193012503589085
2.08,-45.0171476263429,-0.193800669328102
2.09,-44.9622324721674,-0.194587916063059
2.1,-44.9075786798425,-0.195374256765972
2.11,-44.8531846573917,-0.196159704235998
2.12,-44.7990488075906,-0.196944271100841
2.13,-44.7451695289665,-0.197727969818336
2.14,-44.6915452167458,-0.198510812677882
2.15,-44.6381742637702,-0.199292811802056
2.16,-44.5850550613509,-0.20007397914812
2.17,-44.5321860001034,-0.200854326509581
2.18,-44.4795654707272,-0.201633865517787
2.19,-44.4271918647569,-0.202412607643479
2.2,-44.3750635752739,-0.203190564198409
2.21,-44.3231789975792,-0.203967746336895
2.22,-44.2715365298445,-0.204744165057447
2.23,-44.2201345737097,-0.20551983120437
2.24,-44.168971534873,-0.206294755469348
2.25,-44.1180458236329,-0.207068948393044
2.26,-44.0673558554082,-0.207842420366735
2.27,-44.0169000512294,-0.208615181633885
2.28,-43.9666768382027,-0.20938724229176
2.29,-43.916684649947,-0.210158612293007
2.3,-43.8669219270075,-0.210929301447304
2.31,-43.8173871172431,-0.211699319422876
2.32,-43.7680786761933,-0.212468675748117
2.33,-43.7189950674205,-0.213237379813186
2.34,-43.6701347628319,-0.214005440871574
2.35,-43.6214962429814,-0.214772868041624
2.36,-43.5730779973497,-0.215539670308175
2.37,-43.5248785246078,-0.216305856524043
2.38,-43.4768963328619,-0.217071435411601
2.39,-43.4291299398793,-0.217836415564314
2.4,-43.3815778732989,-0.218600805448253
2.41,-43.3342386708235,-0.219364613403622
2.42,-43.2871108804019,-0.220127847646279
2.43,-43.2401930603909,-0.220890516269207
2.44,-43.193483779704,-0.221652627244019
2.45,-43.1469816179498,-0.222414188422451
2.46,-43.1006851655542,-0.223175207537812
2.47,-43.0545930238705,-0.223935692206422
2.48,-43.0087038052804,-0.224695649929114
2.49,-42.9630161332804,-0.225455088092616
2.5,-42.9175286425583,-0.226214013970999
2.51,-42.872239979061,-0.226972434727092
2.52,-42.8271488000508,-0.227730357413873
